用串口助手发下去，既可以执行的控制串


查询16台内机的开关机状态
01 01 00 00 00 10 3D C6
(0号机ON)
01 05 00 00 FF 00 8C 3A
(0号机OFF)
01 05 00 00 00 00 CD CA
(1号机ON)
01 05 00 01 FF 00 DD FA
(1号机OFF)
01 05 00 01 00 00 9C 0A
(2号机ON)
01 05 00 02 FF 00 2D FA
(3号机OFF)
01 05 00 02 00 00 6C 0A

依次类推
01 05 00 03 FF 00 7C 3A
01 05 00 03 00 00 3D CA

01 05 00 04 FF 00 CD FB
01 05 00 04 00 00 8C 0B

01 05 00 05 FF 00 9C 3B
01 05 00 05 00 00 DD CB

01 05 00 06 FF 00 6C 3B
01 05 00 06 00 00 2D CB

01 05 00 07 FF 00 3D FB
01 05 00 07 00 00 7C 0B

01 05 00 07 FF 00 3D FB
01 05 00 07 00 00 7C 0B

01 05 00 08 FF 00 0D F8
01 05 00 08 00 00 4C 08

01 05 00 09 FF 00 5C 38
01 05 00 09 00 00 1D C8

01 05 00 0A FF 00 AC 38
01 05 00 0A 00 00 ED C8

01 05 00 0B FF 00 FD F8
01 05 00 0B 00 00 BC 08

01 05 00 0C FF 00 4C 39
01 05 00 0C 00 00 0D C9

01 05 00 0D FF 00 1D F9
01 05 00 0D 00 00 5C 09

01 05 00 0E FF 00 ED F9
01 05 00 0E 00 00 AC 09

01 05 00 0F FF 00 BC 39
01 05 00 0F 00 00 FD C9

查询16台内机设定温度-工作模式-风速-风向
01 03 00 00 00 40 44 3A
设定温度25度
01 06 00 00 00 19 48 00
设定模式为1（制冷）
01 06 00 01 00 01 19 CA
设定风速为1速
01 06 00 02 00 01 E9 CA